!Agilent Technologies,E5071C,MY46110325,A.11.31
!Date: Thu Jun 26 16:34:28 2014
!Data & Calibration Information:
!Freq	S11:SOLT2(ON)	S21:SOLT2(ON)	S12:SOLT2(ON)	S22:SOLT2(ON)
!PortZ  Port1:50+j0    Port2:50+j0
!Above PortZ is port z conversion or system Z0 setting when saving the data.
!When reading, reference impedance value at option line is always used.
# Hz S dB R 50
3000000000	-8.494991e-001	1.304552e+002	-1.119484e+001	-6.405298e+001	-5.787350e+001	-2.625454e+001	-6.461506e-001	1.487507e+002
3010000000	-8.487742e-001	1.284603e+002	-1.090357e+001	-6.638271e+001	-5.951576e+001	-7.251276e+001	-6.330537e-001	1.463248e+002
3020000000	-8.319338e-001	1.264154e+002	-1.061874e+001	-6.882400e+001	-6.064214e+001	-8.237450e+001	-6.256345e-001	1.438914e+002
3030000000	-8.439156e-001	1.243420e+002	-1.035075e+001	-7.115985e+001	-6.182947e+001	-1.001928e+002	-6.058058e-001	1.414718e+002
3040000000	-8.399910e-001	1.223013e+002	-1.005196e+001	-7.342746e+001	-6.324892e+001	-7.504918e+001	-5.950037e-001	1.391231e+002
3050000000	-8.268161e-001	1.202045e+002	-9.766808e+000	-7.570319e+001	-6.854587e+001	-7.505619e+001	-5.857869e-001	1.367538e+002
3060000000	-8.232425e-001	1.180891e+002	-9.473872e+000	-7.812858e+001	-6.447727e+001	-7.922608e+001	-5.702629e-001	1.343750e+002
3070000000	-8.175317e-001	1.159369e+002	-9.209982e+000	-8.043660e+001	-6.242261e+001	-6.346497e+001	-5.701649e-001	1.321027e+002
3080000000	-8.127082e-001	1.138549e+002	-8.939805e+000	-8.289878e+001	-6.675674e+001	-5.282745e+001	-5.680487e-001	1.297681e+002
3090000000	-8.047246e-001	1.117708e+002	-8.663878e+000	-8.518708e+001	-6.166090e+001	-6.266163e+001	-5.716192e-001	1.274805e+002
3100000000	-7.942698e-001	1.096566e+002	-8.375372e+000	-8.754115e+001	-6.541132e+001	-9.398676e+001	-5.851833e-001	1.251838e+002
3110000000	-7.876404e-001	1.074839e+002	-8.109758e+000	-8.994466e+001	-6.326269e+001	-6.631203e+001	-6.006613e-001	1.228776e+002
3120000000	-7.894535e-001	1.054071e+002	-7.849002e+000	-9.227826e+001	-6.018430e+001	-7.887392e+001	-6.163333e-001	1.205878e+002
3130000000	-7.876558e-001	1.033004e+002	-7.571550e+000	-9.476959e+001	-6.136630e+001	-8.884525e+001	-6.387519e-001	1.183252e+002
3140000000	-7.880833e-001	1.011291e+002	-7.299768e+000	-9.715149e+001	-5.940403e+001	-7.965368e+001	-6.561842e-001	1.159880e+002
3150000000	-7.977428e-001	9.897997e+001	-7.029094e+000	-9.950713e+001	-5.841176e+001	-9.050511e+001	-6.755734e-001	1.137307e+002
3160000000	-7.951575e-001	9.682041e+001	-6.759737e+000	-1.020633e+002	-5.883628e+001	-9.051971e+001	-6.928862e-001	1.113872e+002
3170000000	-8.030394e-001	9.468644e+001	-6.498788e+000	-1.044154e+002	-5.863099e+001	-1.055527e+002	-7.032591e-001	1.090802e+002
3180000000	-8.156474e-001	9.248747e+001	-6.227782e+000	-1.068992e+002	-6.015202e+001	-1.032371e+002	-7.100758e-001	1.067719e+002
3190000000	-8.194478e-001	9.031180e+001	-5.955751e+000	-1.092967e+002	-6.025127e+001	-1.260648e+002	-7.129763e-001	1.044039e+002
3200000000	-8.317827e-001	8.804476e+001	-5.691307e+000	-1.118338e+002	-5.845891e+001	-1.195627e+002	-7.051620e-001	1.020714e+002
3210000000	-8.441864e-001	8.578656e+001	-5.426805e+000	-1.142656e+002	-6.044859e+001	-1.241676e+002	-7.055767e-001	9.973996e+001
3220000000	-8.442950e-001	8.350260e+001	-5.152616e+000	-1.167573e+002	-5.939303e+001	-1.446151e+002	-6.992413e-001	9.739915e+001
3230000000	-8.467423e-001	8.124902e+001	-4.877743e+000	-1.192486e+002	-6.020867e+001	-1.416296e+002	-6.896074e-001	9.507007e+001
3240000000	-8.495564e-001	7.896808e+001	-4.602992e+000	-1.217299e+002	-6.003561e+001	-1.462046e+002	-6.902265e-001	9.275515e+001
3250000000	-8.428799e-001	7.659084e+001	-4.335207e+000	-1.242737e+002	-5.989568e+001	-1.295064e+002	-6.930091e-001	9.046835e+001
3260000000	-8.448785e-001	7.427269e+001	-4.058158e+000	-1.267795e+002	-5.874617e+001	-1.413256e+002	-7.043799e-001	8.817613e+001
3270000000	-8.472083e-001	7.191083e+001	-3.779549e+000	-1.294014e+002	-6.385312e+001	-1.542602e+002	-7.172861e-001	8.590806e+001
3280000000	-8.401420e-001	6.955845e+001	-3.502244e+000	-1.319484e+002	-6.192611e+001	-1.331478e+002	-7.359362e-001	8.365940e+001
3290000000	-8.310864e-001	6.713161e+001	-3.222170e+000	-1.346008e+002	-5.882046e+001	-1.337287e+002	-7.573336e-001	8.136401e+001
3300000000	-8.284566e-001	6.471871e+001	-2.945892e+000	-1.372393e+002	-5.794602e+001	-1.389942e+002	-7.896013e-001	7.911362e+001
3310000000	-8.468280e-001	6.226588e+001	-2.670184e+000	-1.398937e+002	-6.071176e+001	-1.516140e+002	-8.094672e-001	7.683446e+001
3320000000	-8.482970e-001	5.982862e+001	-2.400755e+000	-1.425151e+002	-5.771452e+001	-1.489949e+002	-8.358453e-001	7.447861e+001
3330000000	-8.693662e-001	5.735445e+001	-2.132468e+000	-1.452350e+002	-5.679641e+001	-1.519107e+002	-8.617639e-001	7.221363e+001
3340000000	-8.886459e-001	5.482738e+001	-1.851892e+000	-1.479583e+002	-5.658391e+001	-1.539779e+002	-8.872810e-001	6.983150e+001
3350000000	-9.122447e-001	5.234343e+001	-1.582095e+000	-1.505989e+002	-5.659789e+001	-1.489383e+002	-9.032517e-001	6.749262e+001
3360000000	-9.305863e-001	4.979546e+001	-1.303771e+000	-1.533012e+002	-5.486085e+001	-1.559607e+002	-9.129030e-001	6.511253e+001
3370000000	-9.575110e-001	4.724863e+001	-1.026018e+000	-1.559355e+002	-5.400330e+001	-1.590774e+002	-9.188356e-001	6.269853e+001
3380000000	-9.741569e-001	4.462866e+001	-7.443467e-001	-1.586302e+002	-5.413334e+001	-1.641536e+002	-9.222373e-001	6.029380e+001
3390000000	-9.987226e-001	4.201078e+001	-4.664717e-001	-1.614160e+002	-5.399678e+001	-1.724871e+002	-9.260685e-001	5.788139e+001
3400000000	-1.008667e+000	3.928883e+001	-1.757703e-001	-1.641789e+002	-5.245883e+001	-1.770931e+002	-9.304323e-001	5.545736e+001
3410000000	-1.020162e+000	3.652688e+001	1.167489e-001	-1.670057e+002	-5.175969e+001	1.679449e+002	-9.416970e-001	5.304018e+001
3420000000	-1.031266e+000	3.374367e+001	3.929088e-001	-1.698553e+002	-5.215092e+001	1.685139e+002	-9.498205e-001	5.058938e+001
3430000000	-1.044620e+000	3.085934e+001	6.878227e-001	-1.727827e+002	-5.154796e+001	1.646027e+002	-9.568937e-001	4.816199e+001
3440000000	-1.051612e+000	2.801837e+001	9.734934e-001	-1.757297e+002	-5.080177e+001	1.611139e+002	-9.747275e-001	4.574285e+001
3450000000	-1.069698e+000	2.510201e+001	1.254195e+000	-1.786800e+002	-5.058199e+001	1.554739e+002	-9.870160e-001	4.331290e+001
3460000000	-1.084059e+000	2.224290e+001	1.541797e+000	1.783234e+002	-4.934148e+001	1.534788e+002	-1.014006e+000	4.074204e+001
3470000000	-1.100789e+000	1.931235e+001	1.814869e+000	1.752746e+002	-4.933020e+001	1.460271e+002	-1.047824e+000	3.830207e+001
3480000000	-1.121786e+000	1.631252e+001	2.092785e+000	1.721782e+002	-4.985709e+001	1.444146e+002	-1.079271e+000	3.576328e+001
3490000000	-1.146372e+000	1.339117e+001	2.381043e+000	1.691174e+002	-4.892170e+001	1.326883e+002	-1.111771e+000	3.319669e+001
3500000000	-1.172256e+000	1.038280e+001	2.666303e+000	1.660052e+002	-4.842492e+001	1.292040e+002	-1.155109e+000	3.064323e+001
3510000000	-1.202273e+000	7.304402e+000	2.945338e+000	1.629223e+002	-4.907121e+001	1.281529e+002	-1.193971e+000	2.800736e+001
3520000000	-1.221134e+000	4.200194e+000	3.229832e+000	1.597434e+002	-4.864652e+001	1.254538e+002	-1.230246e+000	2.534757e+001
3530000000	-1.268244e+000	1.037928e+000	3.498217e+000	1.565566e+002	-4.828175e+001	1.232171e+002	-1.256525e+000	2.270759e+001
3540000000	-1.292009e+000	-2.186462e+000	3.789547e+000	1.533373e+002	-4.752609e+001	1.218497e+002	-1.286432e+000	1.999219e+001
3550000000	-1.321355e+000	-5.434347e+000	4.061998e+000	1.501343e+002	-4.794210e+001	1.173509e+002	-1.315841e+000	1.728221e+001
3560000000	-1.353604e+000	-8.751482e+000	4.350184e+000	1.469013e+002	-4.726102e+001	1.222871e+002	-1.342872e+000	1.454390e+001
3570000000	-1.385841e+000	-1.214695e+001	4.622323e+000	1.436203e+002	-4.595657e+001	1.165880e+002	-1.366869e+000	1.176368e+001
3580000000	-1.416736e+000	-1.556903e+001	4.902421e+000	1.403368e+002	-4.603997e+001	1.119038e+002	-1.396819e+000	8.905261e+000
3590000000	-1.450332e+000	-1.903702e+001	5.175726e+000	1.370296e+002	-4.541013e+001	1.080044e+002	-1.430127e+000	6.021334e+000
3600000000	-1.464662e+000	-2.246064e+001	5.463288e+000	1.335988e+002	-4.449206e+001	1.052052e+002	-1.462498e+000	3.215933e+000
3610000000	-1.498919e+000	-2.603975e+001	5.736801e+000	1.302103e+002	-4.364899e+001	9.793573e+001	-1.507527e+000	3.869616e-001
3620000000	-1.513056e+000	-2.960511e+001	6.023480e+000	1.267174e+002	-4.317422e+001	9.398197e+001	-1.545997e+000	-2.487726e+000
3630000000	-1.540265e+000	-3.325567e+001	6.288012e+000	1.232076e+002	-4.269653e+001	8.951515e+001	-1.606118e+000	-5.425649e+000
3640000000	-1.549836e+000	-3.698489e+001	6.553636e+000	1.195893e+002	-4.220613e+001	8.456319e+001	-1.675324e+000	-8.363307e+000
3650000000	-1.578096e+000	-4.067549e+001	6.817543e+000	1.159634e+002	-4.154749e+001	7.964394e+001	-1.739911e+000	-1.131399e+001
3660000000	-1.605577e+000	-4.445201e+001	7.075830e+000	1.122893e+002	-4.103175e+001	7.585837e+001	-1.804458e+000	-1.431814e+001
3670000000	-1.636496e+000	-4.824903e+001	7.328510e+000	1.085893e+002	-4.004080e+001	6.908492e+001	-1.879949e+000	-1.740741e+001
3680000000	-1.669972e+000	-5.205712e+001	7.572608e+000	1.048688e+002	-3.993705e+001	6.522497e+001	-1.965782e+000	-2.047440e+001
3690000000	-1.704628e+000	-5.595194e+001	7.809433e+000	1.011629e+002	-3.945295e+001	5.915133e+001	-2.044153e+000	-2.359106e+001
3700000000	-1.742256e+000	-5.985701e+001	8.049257e+000	9.744980e+001	-3.913102e+001	5.242625e+001	-2.129177e+000	-2.667808e+001
3710000000	-1.771988e+000	-6.374894e+001	8.293953e+000	9.368735e+001	-3.873251e+001	4.553310e+001	-2.201823e+000	-2.990288e+001
3720000000	-1.806573e+000	-6.776384e+001	8.530763e+000	8.990118e+001	-3.821181e+001	4.295443e+001	-2.297087e+000	-3.320029e+001
3730000000	-1.830691e+000	-7.169398e+001	8.760593e+000	8.611201e+001	-3.788686e+001	3.651577e+001	-2.376814e+000	-3.648466e+001
3740000000	-1.858419e+000	-7.571022e+001	9.002731e+000	8.226301e+001	-3.754346e+001	2.959020e+001	-2.454582e+000	-3.973449e+001
3750000000	-1.881605e+000	-7.975301e+001	9.236908e+000	7.841274e+001	-3.731792e+001	2.433534e+001	-2.541394e+000	-4.311775e+001
3760000000	-1.904337e+000	-8.380038e+001	9.454545e+000	7.451337e+001	-3.729009e+001	1.923799e+001	-2.629918e+000	-4.656457e+001
3770000000	-1.917631e+000	-8.783172e+001	9.686496e+000	7.057294e+001	-3.694872e+001	1.448349e+001	-2.725851e+000	-5.004141e+001
3780000000	-1.935318e+000	-9.192671e+001	9.906932e+000	6.654749e+001	-3.680519e+001	9.062845e+000	-2.823739e+000	-5.348082e+001
3790000000	-1.949377e+000	-9.604098e+001	1.012009e+001	6.248866e+001	-3.665898e+001	5.280824e+000	-2.939121e+000	-5.701138e+001
3800000000	-1.964291e+000	-1.001098e+002	1.031619e+001	5.846343e+001	-3.651638e+001	-1.455926e+000	-3.048575e+000	-6.058567e+001
3810000000	-1.979098e+000	-1.041935e+002	1.050811e+001	5.438481e+001	-3.635658e+001	-5.898032e+000	-3.166526e+000	-6.414641e+001
3820000000	-1.992110e+000	-1.082420e+002	1.070113e+001	5.029715e+001	-3.632359e+001	-9.935493e+000	-3.302268e+000	-6.785106e+001
3830000000	-2.008796e+000	-1.123093e+002	1.087427e+001	4.617602e+001	-3.610503e+001	-1.425790e+001	-3.447532e+000	-7.155895e+001
3840000000	-2.023542e+000	-1.162759e+002	1.104286e+001	4.208291e+001	-3.580868e+001	-1.806919e+001	-3.615490e+000	-7.527108e+001
3850000000	-2.035779e+000	-1.203488e+002	1.121518e+001	3.798628e+001	-3.561366e+001	-2.412246e+001	-3.764028e+000	-7.906350e+001
3860000000	-2.048607e+000	-1.243364e+002	1.137774e+001	3.388974e+001	-3.538302e+001	-2.645742e+001	-3.933274e+000	-8.293555e+001
3870000000	-2.067581e+000	-1.283177e+002	1.152820e+001	2.981061e+001	-3.544273e+001	-3.206158e+001	-4.103961e+000	-8.685207e+001
3880000000	-2.092004e+000	-1.323158e+002	1.167012e+001	2.578778e+001	-3.510680e+001	-3.509475e+001	-4.287890e+000	-9.086666e+001
3890000000	-2.106060e+000	-1.363377e+002	1.182899e+001	2.169773e+001	-3.480886e+001	-3.885082e+001	-4.471895e+000	-9.487139e+001
3900000000	-2.144358e+000	-1.402826e+002	1.197063e+001	1.755313e+001	-3.462914e+001	-4.397518e+001	-4.654633e+000	-9.894900e+001
3910000000	-2.161437e+000	-1.442685e+002	1.211149e+001	1.343179e+001	-3.440527e+001	-4.871758e+001	-4.839242e+000	-1.030974e+002
3920000000	-2.185646e+000	-1.481357e+002	1.224393e+001	9.366854e+000	-3.417926e+001	-5.191730e+001	-5.027742e+000	-1.072571e+002
3930000000	-2.211365e+000	-1.520414e+002	1.237277e+001	5.259865e+000	-3.386456e+001	-5.775112e+001	-5.216638e+000	-1.114030e+002
3940000000	-2.237055e+000	-1.559288e+002	1.249962e+001	1.172339e+000	-3.366570e+001	-6.104643e+001	-5.425616e+000	-1.156745e+002
3950000000	-2.251674e+000	-1.597235e+002	1.262628e+001	-2.983510e+000	-3.350134e+001	-6.672419e+001	-5.622553e+000	-1.199430e+002
3960000000	-2.282093e+000	-1.635488e+002	1.273615e+001	-7.106137e+000	-3.325162e+001	-7.070525e+001	-5.836017e+000	-1.242097e+002
3970000000	-2.295621e+000	-1.671660e+002	1.285103e+001	-1.123386e+001	-3.333319e+001	-7.472215e+001	-6.052397e+000	-1.285026e+002
3980000000	-2.305473e+000	-1.709774e+002	1.295369e+001	-1.543648e+001	-3.308421e+001	-7.976619e+001	-6.270372e+000	-1.329226e+002
3990000000	-2.322918e+000	-1.745996e+002	1.306031e+001	-1.954954e+001	-3.298199e+001	-8.309605e+001	-6.540849e+000	-1.375765e+002
4000000000	-2.352395e+000	-1.781896e+002	1.314748e+001	-2.368004e+001	-3.288194e+001	-8.755840e+001	-6.813734e+000	-1.421752e+002
4010000000	-2.381879e+000	1.782601e+002	1.323622e+001	-2.781046e+001	-3.269170e+001	-9.173199e+001	-7.085206e+000	-1.469265e+002
4020000000	-2.415027e+000	1.747480e+002	1.330229e+001	-3.194596e+001	-3.259934e+001	-9.545290e+001	-7.375647e+000	-1.518071e+002
4030000000	-2.460415e+000	1.712874e+002	1.338177e+001	-3.599017e+001	-3.246740e+001	-9.917082e+001	-7.687492e+000	-1.568857e+002
4040000000	-2.516965e+000	1.678689e+002	1.344534e+001	-4.000382e+001	-3.210406e+001	-1.030104e+002	-8.012107e+000	-1.619154e+002
4050000000	-2.576050e+000	1.645128e+002	1.351700e+001	-4.402030e+001	-3.183745e+001	-1.066439e+002	-8.334429e+000	-1.671199e+002
4060000000	-2.640605e+000	1.611750e+002	1.358654e+001	-4.795836e+001	-3.156361e+001	-1.117321e+002	-8.664040e+000	-1.723200e+002
4070000000	-2.715168e+000	1.579446e+002	1.364652e+001	-5.192483e+001	-3.155426e+001	-1.159794e+002	-8.972689e+000	-1.774670e+002
4080000000	-2.773337e+000	1.547100e+002	1.371779e+001	-5.586691e+001	-3.123786e+001	-1.208813e+002	-9.294238e+000	1.772569e+002
4090000000	-2.834267e+000	1.515929e+002	1.378396e+001	-5.975391e+001	-3.113036e+001	-1.249668e+002	-9.620892e+000	1.720462e+002
4100000000	-2.890811e+000	1.484764e+002	1.385643e+001	-6.369077e+001	-3.095402e+001	-1.290458e+002	-9.928723e+000	1.665971e+002
4110000000	-2.944335e+000	1.452983e+002	1.392711e+001	-6.761532e+001	-3.081507e+001	-1.337313e+002	-1.023443e+001	1.611300e+002
4120000000	-2.997686e+000	1.423199e+002	1.399636e+001	-7.155038e+001	-3.068394e+001	-1.381799e+002	-1.056059e+001	1.554816e+002
4130000000	-3.047686e+000	1.393495e+002	1.406227e+001	-7.551740e+001	-3.057896e+001	-1.414719e+002	-1.091388e+001	1.498372e+002
4140000000	-3.095547e+000	1.364503e+002	1.412599e+001	-7.943099e+001	-3.041957e+001	-1.465058e+002	-1.128121e+001	1.440551e+002
4150000000	-3.149836e+000	1.336330e+002	1.418510e+001	-8.337009e+001	-3.021464e+001	-1.512601e+002	-1.166419e+001	1.382355e+002
4160000000	-3.189107e+000	1.308575e+002	1.424866e+001	-8.733229e+001	-3.018557e+001	-1.555019e+002	-1.200888e+001	1.324257e+002
4170000000	-3.223124e+000	1.280914e+002	1.430573e+001	-9.130985e+001	-3.009071e+001	-1.609193e+002	-1.234841e+001	1.261030e+002
4180000000	-3.261640e+000	1.253379e+002	1.436091e+001	-9.522733e+001	-3.005510e+001	-1.646018e+002	-1.270486e+001	1.199559e+002
4190000000	-3.311184e+000	1.226987e+002	1.441861e+001	-9.915104e+001	-2.992051e+001	-1.696031e+002	-1.300201e+001	1.132039e+002
4200000000	-3.345390e+000	1.200046e+002	1.447246e+001	-1.031703e+002	-2.981293e+001	-1.738566e+002	-1.327982e+001	1.062920e+002
4210000000	-3.385295e+000	1.173152e+002	1.453406e+001	-1.072614e+002	-2.978200e+001	-1.786592e+002	-1.351205e+001	9.945925e+001
4220000000	-3.444707e+000	1.147011e+002	1.456735e+001	-1.113059e+002	-2.971223e+001	1.772685e+002	-1.373260e+001	9.216704e+001
4230000000	-3.482855e+000	1.119674e+002	1.459677e+001	-1.152719e+002	-2.966280e+001	1.733308e+002	-1.389581e+001	8.523757e+001
4240000000	-3.530806e+000	1.092466e+002	1.463337e+001	-1.193089e+002	-2.961038e+001	1.697303e+002	-1.401036e+001	7.760643e+001
4250000000	-3.581011e+000	1.065235e+002	1.465883e+001	-1.233387e+002	-2.962252e+001	1.657434e+002	-1.409943e+001	7.036994e+001
4260000000	-3.652403e+000	1.038490e+002	1.467834e+001	-1.273370e+002	-2.954580e+001	1.599193e+002	-1.413204e+001	6.297301e+001
4270000000	-3.696725e+000	1.011433e+002	1.468681e+001	-1.313417e+002	-2.950021e+001	1.560877e+002	-1.417200e+001	5.555493e+001
4280000000	-3.738878e+000	9.843785e+001	1.468698e+001	-1.352785e+002	-2.949841e+001	1.523944e+002	-1.421992e+001	4.811498e+001
4290000000	-3.790699e+000	9.565061e+001	1.469161e+001	-1.391629e+002	-2.943756e+001	1.485552e+002	-1.419522e+001	4.066181e+001
4300000000	-3.835099e+000	9.302543e+001	1.469843e+001	-1.429848e+002	-2.937461e+001	1.443233e+002	-1.416103e+001	3.337641e+001
4310000000	-3.886504e+000	9.037512e+001	1.469943e+001	-1.468307e+002	-2.926820e+001	1.407582e+002	-1.408749e+001	2.618189e+001
4320000000	-3.935762e+000	8.766340e+001	1.470538e+001	-1.506597e+002	-2.926593e+001	1.366087e+002	-1.398497e+001	1.896971e+001
4330000000	-3.984781e+000	8.503475e+001	1.469777e+001	-1.544556e+002	-2.928583e+001	1.323588e+002	-1.387730e+001	1.165082e+001
4340000000	-4.041278e+000	8.246858e+001	1.469922e+001	-1.582335e+002	-2.925129e+001	1.289152e+002	-1.377270e+001	4.616978e+000
4350000000	-4.099699e+000	7.991376e+001	1.470092e+001	-1.619646e+002	-2.924178e+001	1.250209e+002	-1.360050e+001	-2.091260e+000
4360000000	-4.165399e+000	7.736042e+001	1.469983e+001	-1.656718e+002	-2.915253e+001	1.215687e+002	-1.339650e+001	-8.344981e+000
4370000000	-4.235001e+000	7.476872e+001	1.470212e+001	-1.694129e+002	-2.907379e+001	1.174874e+002	-1.317292e+001	-1.492392e+001
4380000000	-4.317832e+000	7.226696e+001	1.470868e+001	-1.731803e+002	-2.907048e+001	1.125968e+002	-1.294431e+001	-2.119353e+001
4390000000	-4.388845e+000	6.972750e+001	1.469982e+001	-1.769397e+002	-2.896802e+001	1.092620e+002	-1.276737e+001	-2.733519e+001
4400000000	-4.467423e+000	6.720590e+001	1.470564e+001	1.793308e+002	-2.893732e+001	1.055285e+002	-1.255131e+001	-3.313900e+001
4410000000	-4.545948e+000	6.470085e+001	1.469404e+001	1.756276e+002	-2.896956e+001	1.019238e+002	-1.236666e+001	-3.847439e+001
4420000000	-4.632444e+000	6.215446e+001	1.469315e+001	1.720245e+002	-2.894047e+001	9.802198e+001	-1.216467e+001	-4.370672e+001
4430000000	-4.712842e+000	5.969047e+001	1.468988e+001	1.683503e+002	-2.889767e+001	9.431987e+001	-1.192595e+001	-4.878866e+001
4440000000	-4.797346e+000	5.712051e+001	1.469104e+001	1.646692e+002	-2.888612e+001	9.053326e+001	-1.171503e+001	-5.384089e+001
4450000000	-4.890501e+000	5.455437e+001	1.468546e+001	1.609717e+002	-2.888983e+001	8.629083e+001	-1.150798e+001	-5.898143e+001
4460000000	-4.965193e+000	5.210475e+001	1.467585e+001	1.573694e+002	-2.889650e+001	8.288025e+001	-1.136848e+001	-6.370127e+001
4470000000	-5.036603e+000	4.947231e+001	1.467172e+001	1.538383e+002	-2.881965e+001	7.921069e+001	-1.117293e+001	-6.827509e+001
4480000000	-5.118308e+000	4.697381e+001	1.466145e+001	1.503254e+002	-2.882374e+001	7.551869e+001	-1.100510e+001	-7.290937e+001
4490000000	-5.195644e+000	4.434155e+001	1.467742e+001	1.467533e+002	-2.878564e+001	7.192117e+001	-1.080028e+001	-7.736306e+001
4500000000	-5.269469e+000	4.178939e+001	1.468781e+001	1.432136e+002	-2.872438e+001	6.834787e+001	-1.059872e+001	-8.206146e+001
4510000000	-5.363892e+000	3.917992e+001	1.468588e+001	1.395679e+002	-2.864284e+001	6.491096e+001	-1.042527e+001	-8.684150e+001
4520000000	-5.432927e+000	3.663456e+001	1.469331e+001	1.360428e+002	-2.863796e+001	6.126258e+001	-1.027747e+001	-9.149686e+001
